
T772C 000:137 SEGGER J-Link V6.10i Log File (0001ms, 0042ms total)
T772C 000:137 DLL Compiled: Oct 25 2016 19:31:51 (0001ms, 0042ms total)
T772C 000:137 Logging started @ 2017-01-11 23:12 (0001ms, 0042ms total)
T772C 000:138 JLINK_SetWarnOutHandler(...) (0000ms, 0042ms total)
T772C 000:138 JLINK_OpenEx(...)
Firmware: J-Link ARM-OB STM32 compiled Aug 22 2012 19:52:04
Hardware: V7.00
S/N: 20161228
Feature(s): RDI,FlashDL,FlashBP,JFlash,GDBFullWEBSRV Webserver running on local port 19080 (0028ms, 0070ms total)
T772C 000:138   returns O.K. (0028ms, 0070ms total)
T772C 000:166 JLINK_SetErrorOutHandler(...) (0000ms, 0070ms total)
T772C 000:166 JLINK_ExecCommand("ProjectFile = "E:\ZhiNengChe\yandld-CH-K-Lib-rel_raven_ks22\CH-K-Lib\Project\RavenKS22¶ÉÑ»_»ù´¡Àý³Ì\wzt\mdk\JLinkSettings.ini"", ...).   returns 0x00 (0148ms, 0218ms total)
T772C 000:316 JLINK_ExecCommand("Device = MKS22FN256xxx12", ...). Device "MKS22FN256XXX12" selected.  returns 0x00 (0003ms, 0221ms total)
T772C 000:319 JLINK_ExecCommand("DisableConnectionTimeout", ...).   returns 0x01 (0000ms, 0221ms total)
T772C 000:319 JLINK_GetHardwareVersion()  returns 0x11170 (0000ms, 0221ms total)
T772C 000:319 JLINK_GetDLLVersion()  returns 61009 (0000ms, 0221ms total)
T772C 000:319 JLINK_GetFirmwareString(...) (0000ms, 0221ms total)
T772C 000:327 JLINK_GetDLLVersion()  returns 61009 (0000ms, 0221ms total)
T772C 000:327 JLINK_GetCompileDateTime() (0000ms, 0221ms total)
T772C 000:333 JLINK_GetFirmwareString(...) (0000ms, 0221ms total)
T772C 000:334 JLINK_GetHardwareVersion()  returns 0x11170 (0000ms, 0221ms total)
T772C 000:341 JLINK_TIF_Select(JLINKARM_TIF_SWD)  returns 0x00 (0003ms, 0224ms total)
T772C 000:344 JLINK_SetSpeed(5000) (0001ms, 0225ms total)
T772C 000:345 JLINK_GetId() >0x108 TIF>Found SWD-DP with ID 0x2BA01477 >0x0D TIF> >0x28 TIF> >0x0D TIF> >0x28 TIF> >0x0D TIF> >0x28 TIF> >0x0D TIF> >0x28 TIF> >0x0D TIF> >0x21 TIF> >0x0D TIF> >0x28 TIF> >0x0D TIF> >0x21 TIF> >0x0D TIF> >0x21 TIF> >0x0D TIF> >0x21 TIF> >0x0D TIF> >0x21 TIF> >0x0D TIF> >0x21 TIF> >0x0D TIF> >0x21 TIF> >0x0D TIF> >0x21 TIF> >0x0D TIF> >0x21 TIF> >0x0D TIF> >0x21 TIF> >0x0D TIF> >0x21 TIF> >0x0D TIF> >0x21 TIF> >0x0D TIF> >0x21 TIF> >0x0D TIF> >0x21 TIF> >0x0D TIF>
 >0x21 TIF> >0x0D TIF> >0x21 TIF> >0x0D TIF> >0x21 TIF> >0x0D TIF> >0x21 TIF> >0x0D TIF> >0x21 TIF> >0x0D TIF> >0x21 TIF> >0x0D TIF> >0x21 TIF> >0x0D TIF> >0x21 TIF> >0x0D TIF> >0x21 TIF> >0x0D TIF> >0x21 TIF> >0x0D TIF> >0x21 TIF> >0x0D TIF> >0x21 TIF> >0x0D TIF> >0x21 TIF> >0x0D TIF> >0x21 TIF> >0x0D TIF> >0x21 TIF> >0x0D TIF> >0x21 TIF> >0x0D TIF> >0x21 TIF> >0x0D TIF> >0x21 TIF> >0x0D TIF> >0x21 TIF> >0x0D TIF> >0x28 TIF> >0x0D TIF> >0x28 TIF> >0x0D TIF> >0x28 TIF> >0x0D TIF> >0x21 TIF> >0x0D TIF>
 >0x21 TIF> >0x108 TIF>Found SWD-DP with ID 0x2BA01477 >0x0D TIF> >0x28 TIF> >0x0D TIF> >0x28 TIF> >0x0D TIF> >0x28 TIF> >0x0D TIF> >0x28 TIF> >0x0D TIF> >0x21 TIF> >0x0D TIF> >0x28 TIF> >0x0D TIF> >0x28 TIF> >0x0D TIF> >0x21 TIF> >0x0D TIF> >0x21 TIF> >0x0D TIF> >0x21 TIF>AP-IDR: 0x24770011, Type: AHB-AP >0x0D TIF> >0x28 TIF> >0x0D TIF> >0x28 TIF> >0x0D TIF> >0x28 TIF> >0x0D TIF> >0x21 TIF> >0x0D TIF> >0x21 TIF> >0x0D TIF> >0x28 TIF> >0x0D TIF> >0x21 TIF> >0x0D TIF> >0x21 TIF>
Found Cortex-M4 r0p1, Little endian. -- CPU_ReadMem(4 bytes @ 0xE000EDF0) -- CPU_WriteMem(4 bytes @ 0xE000EDF0) -- CPU_ReadMem(4 bytes @ 0xE0002000)FPUnit: 6 code (BP) slots and 2 literal slots -- CPU_ReadMem(4 bytes @ 0xE000EDFC) -- CPU_WriteMem(4 bytes @ 0xE000EDFC) -- CPU_ReadMem(4 bytes @ 0xE0001000) -- CPU_WriteMem(4 bytes @ 0xE0001000) -- CPU_ReadMem(4 bytes @ 0xE000ED88) -- CPU_WriteMem(4 bytes @ 0xE000ED88) -- CPU_ReadMem(4 bytes @ 0xE000ED88) -- CPU_WriteMem(4 bytes @ 0xE000ED88)
CoreSight components:ROMTbl 0 @ E00FF000 -- CPU_ReadMem(16 bytes @ 0xE00FF000) -- CPU_ReadMem(16 bytes @ 0xE000EFF0) -- CPU_ReadMem(16 bytes @ 0xE000EFE0)ROMTbl 0 [0]: FFF0F000, CID: B105E00D, PID: 000BB00C SCS -- CPU_ReadMem(16 bytes @ 0xE0001FF0) -- CPU_ReadMem(16 bytes @ 0xE0001FE0)ROMTbl 0 [1]: FFF02000, CID: B105E00D, PID: 003BB002 DWT -- CPU_ReadMem(16 bytes @ 0xE0002FF0) -- CPU_ReadMem(16 bytes @ 0xE0002FE0)ROMTbl 0 [2]: FFF03000, CID: B105E00D, PID: 002BB003 FPB
 -- CPU_ReadMem(16 bytes @ 0xE0000FF0) -- CPU_ReadMem(16 bytes @ 0xE0000FE0)ROMTbl 0 [3]: FFF01000, CID: B105E00D, PID: 003BB001 ITM -- CPU_ReadMem(16 bytes @ 0xE00FF010) -- CPU_ReadMem(16 bytes @ 0xE0040FF0) -- CPU_ReadMem(16 bytes @ 0xE0040FE0)ROMTbl 0 [4]: FFF41000, CID: B105900D, PID: 000BB9A1 TPIU -- CPU_ReadMem(16 bytes @ 0xE00FF020) >0x0D TIF> >0x21 TIF>  returns 0x2BA01477 (0190ms, 0415ms total)
T772C 000:535 JLINK_GetDLLVersion()  returns 61009 (0000ms, 0415ms total)
T772C 000:535 JLINK_CORE_GetFound()  returns 0xE0000FF (0000ms, 0415ms total)
T772C 000:535 JLINK_GetDebugInfo(0x100) -- Value=0xE00FF000  returns 0x00 (0000ms, 0415ms total)
T772C 000:537 JLINK_GetDebugInfo(0x100) -- Value=0xE00FF000  returns 0x00 (0000ms, 0415ms total)
T772C 000:537 JLINK_GetDebugInfo(0x101) -- Value=0xE0041000  returns 0x00 (0000ms, 0415ms total)
T772C 000:537 JLINK_GetDebugInfo(0x102) -- Value=0x00000000  returns 0x00 (0000ms, 0415ms total)
T772C 000:537 JLINK_GetDebugInfo(0x103) -- Value=0xE0040000  returns 0x00 (0000ms, 0415ms total)
T772C 000:537 JLINK_GetDebugInfo(0x104) -- Value=0xE0000000  returns 0x00 (0000ms, 0415ms total)
T772C 000:537 JLINK_GetDebugInfo(0x105) -- Value=0xE0001000  returns 0x00 (0000ms, 0415ms total)
T772C 000:537 JLINK_GetDebugInfo(0x106) -- Value=0xE0002000  returns 0x00 (0000ms, 0415ms total)
T772C 000:537 JLINK_GetDebugInfo(0x107) -- Value=0xE000E000  returns 0x00 (0000ms, 0415ms total)
T772C 000:537 JLINK_GetDebugInfo(0x10C) -- Value=0xE000EDF0  returns 0x00 (0000ms, 0415ms total)
T772C 000:537 JLINK_ReadMemU32(0xE000EF40, 0x0001 Items, ...) -- CPU is running -- CPU_ReadMem(4 bytes @ 0xE000EF40) - Data: 21 00 11 10  returns 0x01 (0001ms, 0416ms total)
T772C 000:538 JLINK_ReadMemU32(0xE000EF44, 0x0001 Items, ...) -- CPU is running -- CPU_ReadMem(4 bytes @ 0xE000EF44) - Data: 11 00 00 11  returns 0x01 (0001ms, 0417ms total)
T772C 000:539 JLINK_ReadMemU32(0xE000ED00, 0x0001 Items, ...) -- CPU is running -- CPU_ReadMem(4 bytes @ 0xE000ED00) - Data: 41 C2 0F 41  returns 0x01 (0001ms, 0418ms total)
T772C 000:540 JLINK_SetResetType(JLINKARM_RESET_TYPE_NORMAL)  returns JLINKARM_RESET_TYPE_NORMAL (0000ms, 0418ms total)
T772C 000:540 JLINK_Reset() -- CPU is running -- CPU_WriteMem(4 bytes @ 0xE000EDF0) -- CPU is running -- CPU_WriteMem(4 bytes @ 0xE000EDFC) >0x35 TIF> -- CPU is running -- CPU_WriteMem(4 bytes @ 0xE000ED0C) -- CPU is running -- CPU_ReadMem(4 bytes @ 0xE000EDF0) -- CPU is running -- CPU_ReadMem(4 bytes @ 0xE000EDF0) -- CPU is running -- CPU_WriteMem(4 bytes @ 0xE000EDF0) -- CPU is running -- CPU_WriteMem(4 bytes @ 0xE000EDFC) -- CPU is running -- CPU_ReadMem(4 bytes @ 0xE000EDF0)
 -- CPU_ReadMem(2 bytes @ 0x40052000) -- CPU_ReadMem(8 bytes @ 0x20000000) -- CPU_WriteMem(8 bytes @ 0x20000000) -- CPU_ReadMem(4 bytes @ 0xE0001000) -- CPU_WriteMem(8 bytes @ 0x20000000) -- CPU_WriteMem(4 bytes @ 0xE0002000) -- CPU_ReadMem(4 bytes @ 0xE000EDFC) -- CPU_ReadMem(4 bytes @ 0xE0001000) (0034ms, 0452ms total)
T772C 000:574 JLINK_Halt()  returns 0x00 (0000ms, 0452ms total)
T772C 000:574 JLINK_IsHalted()  returns TRUE (0000ms, 0452ms total)
T772C 000:574 JLINK_ReadMemU32(0xE000EDF0, 0x0001 Items, ...) -- CPU_ReadMem(4 bytes @ 0xE000EDF0) - Data: 0B 00 03 00  returns 0x01 (0001ms, 0453ms total)
T772C 000:575 JLINK_WriteU32(0xE000EDF0, 0xA05F0003) -- CPU_WriteMem(4 bytes @ 0xE000EDF0)  returns 0x00 (0001ms, 0454ms total)
T772C 000:576 JLINK_WriteU32(0xE000EDFC, 0x01000000) -- CPU_WriteMem(4 bytes @ 0xE000EDFC)  returns 0x00 (0001ms, 0455ms total)
T772C 000:585 JLINK_GetHWStatus(...)  returns 0x00 (0001ms, 0456ms total)
T772C 000:594 JLINK_GetNumBPUnits(Type = 0xFFFFFF00)  returns 0x06 (0000ms, 0456ms total)
T772C 000:594 JLINK_GetNumBPUnits(Type = 0xF0)  returns 0x2000 (0000ms, 0456ms total)
T772C 000:594 JLINK_GetNumWPUnits()  returns 0x04 (0000ms, 0456ms total)
T772C 000:599 JLINK_GetSpeed()  returns 0xFA0 (0001ms, 0457ms total)
T772C 000:603 JLINK_ReadMemU32(0xE000E004, 0x0001 Items, ...) -- CPU_ReadMem(4 bytes @ 0xE000E004) - Data: 03 00 00 00  returns 0x01 (0001ms, 0458ms total)
T772C 000:604 JLINK_ReadMemU32(0xE000E004, 0x0001 Items, ...) -- CPU_ReadMem(4 bytes @ 0xE000E004) - Data: 03 00 00 00  returns 0x01 (0001ms, 0459ms total)
T772C 000:605 JLINK_WriteMem(0xE0001000, 0x001C Bytes, ...) - Data: 01 00 00 00 00 00 00 00 00 00 00 00 00 00 00 00 ... -- CPU_WriteMem(28 bytes @ 0xE0001000)  returns 0x1C (0002ms, 0461ms total)
T772C 000:607 JLINK_ReadMem (0xE0001000, 0x001C Bytes, ...) -- CPU_ReadMem(28 bytes @ 0xE0001000) - Data: 01 00 00 40 00 00 00 00 00 00 00 00 00 00 00 00 ...  returns 0x00 (0001ms, 0462ms total)
T772C 000:608 JLINK_Halt()  returns 0x00 (0000ms, 0462ms total)
T772C 000:608 JLINK_IsHalted()  returns TRUE (0000ms, 0462ms total)
T772C 000:611 JLINK_WriteMem(0x20000000, 0x0508 Bytes, ...) - Data: 00 BE 0A E0 0D 78 2D 06 68 40 08 24 40 00 00 D3 ... -- CPU_WriteMem(1288 bytes @ 0x20000000)  returns 0x508 (0015ms, 0477ms total)
T772C 000:626 JLINK_WriteReg(R0, 0x00000000)  returns 0x00 (0000ms, 0477ms total)
T772C 000:627 JLINK_WriteReg(R1, 0x00B71B00)  returns 0x00 (0000ms, 0477ms total)
T772C 000:627 JLINK_WriteReg(R2, 0x00000001)  returns 0x00 (0000ms, 0477ms total)
T772C 000:627 JLINK_WriteReg(R3, 0x00000000)  returns 0x00 (0000ms, 0477ms total)
T772C 000:627 JLINK_WriteReg(R4, 0x00000000)  returns 0x00 (0000ms, 0477ms total)
T772C 000:627 JLINK_WriteReg(R5, 0x00000000)  returns 0x00 (0000ms, 0477ms total)
T772C 000:627 JLINK_WriteReg(R6, 0x00000000)  returns 0x00 (0000ms, 0477ms total)
T772C 000:627 JLINK_WriteReg(R7, 0x00000000)  returns 0x00 (0000ms, 0477ms total)
T772C 000:627 JLINK_WriteReg(R8, 0x00000000)  returns 0x00 (0000ms, 0477ms total)
T772C 000:627 JLINK_WriteReg(R9, 0x20000500)  returns 0x00 (0000ms, 0477ms total)
T772C 000:627 JLINK_WriteReg(R10, 0x00000000)  returns 0x00 (0000ms, 0477ms total)
T772C 000:627 JLINK_WriteReg(R11, 0x00000000)  returns 0x00 (0000ms, 0477ms total)
T772C 000:627 JLINK_WriteReg(R12, 0x00000000)  returns 0x00 (0000ms, 0477ms total)
T772C 000:627 JLINK_WriteReg(R13 (SP), 0x20001000)  returns 0x00 (0000ms, 0477ms total)
T772C 000:627 JLINK_WriteReg(R14, 0x20000001)  returns 0x00 (0000ms, 0477ms total)
T772C 000:627 JLINK_WriteReg(R15 (PC), 0x20000020)  returns 0x00 (0000ms, 0477ms total)
T772C 000:627 JLINK_WriteReg(XPSR, 0x01000000)  returns 0x00 (0000ms, 0477ms total)
T772C 000:627 JLINK_WriteReg(MSP, 0x20001000)  returns 0x00 (0000ms, 0477ms total)
T772C 000:627 JLINK_WriteReg(PSP, 0x20001000)  returns 0x00 (0000ms, 0477ms total)
T772C 000:627 JLINK_WriteReg(CFBP, 0x00000000)  returns 0x00 (0000ms, 0477ms total)
T772C 000:627 JLINK_SetBPEx(Addr = 0x20000000, Type = 0xFFFFFFF2) -- CPU_ReadMem(2 bytes @ 0x20000000)  returns 0x00000001 (0002ms, 0479ms total)
T772C 000:629 JLINK_Go() -- CPU_WriteMem(2 bytes @ 0x20000000) -- CPU_ReadMem(4 bytes @ 0xE0001000) -- CPU_WriteMem(4 bytes @ 0xE0002008) -- CPU_WriteMem(4 bytes @ 0xE000200C) -- CPU_WriteMem(4 bytes @ 0xE0002010) -- CPU_WriteMem(4 bytes @ 0xE0002014) -- CPU_WriteMem(4 bytes @ 0xE0002018) -- CPU_WriteMem(4 bytes @ 0xE000201C) -- CPU_WriteMem(4 bytes @ 0xE0001004) (0011ms, 0490ms total)
T772C 000:640 JLINK_IsHalted() -- CPU_ReadMem(2 bytes @ 0x20000000)  returns TRUE (0005ms, 0495ms total)
T772C 000:645 JLINK_ReadReg(R15 (PC))  returns 0x20000000 (0000ms, 0490ms total)
T772C 000:645 JLINK_ClrBPEx(BPHandle = 0x00000001)  returns 0x00 (0000ms, 0490ms total)
T772C 000:645 JLINK_ReadReg(R0)  returns 0x00000000 (0000ms, 0490ms total)
T772C 000:645 JLINK_WriteReg(R0, 0x00000000)  returns 0x00 (0000ms, 0490ms total)
T772C 000:645 JLINK_WriteReg(R1, 0x00000800)  returns 0x00 (0000ms, 0490ms total)
T772C 000:645 JLINK_WriteReg(R2, 0x000000FF)  returns 0x00 (0000ms, 0490ms total)
T772C 000:645 JLINK_WriteReg(R3, 0x00000000)  returns 0x00 (0000ms, 0490ms total)
T772C 000:645 JLINK_WriteReg(R4, 0x00000000)  returns 0x00 (0000ms, 0490ms total)
T772C 000:645 JLINK_WriteReg(R5, 0x00000000)  returns 0x00 (0000ms, 0490ms total)
T772C 000:645 JLINK_WriteReg(R6, 0x00000000)  returns 0x00 (0000ms, 0490ms total)
T772C 000:645 JLINK_WriteReg(R7, 0x00000000)  returns 0x00 (0000ms, 0490ms total)
T772C 000:645 JLINK_WriteReg(R8, 0x00000000)  returns 0x00 (0000ms, 0490ms total)
T772C 000:645 JLINK_WriteReg(R9, 0x20000500)  returns 0x00 (0000ms, 0490ms total)
T772C 000:645 JLINK_WriteReg(R10, 0x00000000)  returns 0x00 (0000ms, 0490ms total)
T772C 000:645 JLINK_WriteReg(R11, 0x00000000)  returns 0x00 (0000ms, 0490ms total)
T772C 000:645 JLINK_WriteReg(R12, 0x00000000)  returns 0x00 (0000ms, 0490ms total)
T772C 000:645 JLINK_WriteReg(R13 (SP), 0x20001000)  returns 0x00 (0000ms, 0490ms total)
T772C 000:645 JLINK_WriteReg(R14, 0x20000001)  returns 0x00 (0000ms, 0490ms total)
T772C 000:645 JLINK_WriteReg(R15 (PC), 0x20000078)  returns 0x00 (0000ms, 0490ms total)
T772C 000:645 JLINK_WriteReg(XPSR, 0x01000000)  returns 0x00 (0001ms, 0491ms total)
T772C 000:646 JLINK_WriteReg(MSP, 0x20001000)  returns 0x00 (0000ms, 0491ms total)
T772C 000:646 JLINK_WriteReg(PSP, 0x20001000)  returns 0x00 (0000ms, 0491ms total)
T772C 000:646 JLINK_WriteReg(CFBP, 0x00000000)  returns 0x00 (0000ms, 0491ms total)
T772C 000:646 JLINK_SetBPEx(Addr = 0x20000000, Type = 0xFFFFFFF2)  returns 0x00000002 (0000ms, 0491ms total)
T772C 000:646 JLINK_Go() -- CPU_ReadMem(4 bytes @ 0xE0001000) (0004ms, 0495ms total)
T772C 000:650 JLINK_IsHalted() -- CPU_ReadMem(2 bytes @ 0x20000000)  returns TRUE (0005ms, 0500ms total)
T772C 000:655 JLINK_ReadReg(R15 (PC))  returns 0x20000000 (0000ms, 0495ms total)
T772C 000:655 JLINK_ClrBPEx(BPHandle = 0x00000002)  returns 0x00 (0000ms, 0495ms total)
T772C 000:655 JLINK_ReadReg(R0)  returns 0x00000001 (0000ms, 0495ms total)
T772C 000:655 JLINK_WriteReg(R0, 0x00000000)  returns 0x00 (0000ms, 0495ms total)
T772C 000:655 JLINK_WriteReg(R1, 0x00000800)  returns 0x00 (0000ms, 0495ms total)
T772C 000:655 JLINK_WriteReg(R2, 0x000000FF)  returns 0x00 (0000ms, 0495ms total)
T772C 000:655 JLINK_WriteReg(R3, 0x00000000)  returns 0x00 (0000ms, 0495ms total)
T772C 000:655 JLINK_WriteReg(R4, 0x00000000)  returns 0x00 (0000ms, 0495ms total)
T772C 000:655 JLINK_WriteReg(R5, 0x00000000)  returns 0x00 (0000ms, 0495ms total)
T772C 000:655 JLINK_WriteReg(R6, 0x00000000)  returns 0x00 (0000ms, 0495ms total)
T772C 000:655 JLINK_WriteReg(R7, 0x00000000)  returns 0x00 (0000ms, 0495ms total)
T772C 000:655 JLINK_WriteReg(R8, 0x00000000)  returns 0x00 (0000ms, 0495ms total)
T772C 000:655 JLINK_WriteReg(R9, 0x20000500)  returns 0x00 (0000ms, 0495ms total)
T772C 000:655 JLINK_WriteReg(R10, 0x00000000)  returns 0x00 (0000ms, 0495ms total)
T772C 000:655 JLINK_WriteReg(R11, 0x00000000)  returns 0x00 (0000ms, 0495ms total)
T772C 000:655 JLINK_WriteReg(R12, 0x00000000)  returns 0x00 (0000ms, 0495ms total)
T772C 000:655 JLINK_WriteReg(R13 (SP), 0x20001000)  returns 0x00 (0000ms, 0495ms total)
T772C 000:655 JLINK_WriteReg(R14, 0x20000001)  returns 0x00 (0000ms, 0495ms total)
T772C 000:655 JLINK_WriteReg(R15 (PC), 0x200000CE)  returns 0x00 (0000ms, 0495ms total)
T772C 000:655 JLINK_WriteReg(XPSR, 0x01000000)  returns 0x00 (0000ms, 0495ms total)
T772C 000:655 JLINK_WriteReg(MSP, 0x20001000)  returns 0x00 (0000ms, 0495ms total)
T772C 000:655 JLINK_WriteReg(PSP, 0x20001000)  returns 0x00 (0000ms, 0495ms total)
T772C 000:655 JLINK_WriteReg(CFBP, 0x00000000)  returns 0x00 (0000ms, 0495ms total)
T772C 000:655 JLINK_SetBPEx(Addr = 0x20000000, Type = 0xFFFFFFF2)  returns 0x00000003 (0000ms, 0495ms total)
T772C 000:655 JLINK_Go() -- CPU_ReadMem(4 bytes @ 0xE0001000) (0004ms, 0499ms total)
T772C 000:659 JLINK_IsHalted()  returns FALSE (0001ms, 0500ms total)
T772C 000:694 JLINK_IsHalted() -- CPU_ReadMem(2 bytes @ 0x20000000)  returns TRUE (0004ms, 0503ms total)
T772C 000:698 JLINK_ReadReg(R15 (PC))  returns 0x20000000 (0000ms, 0499ms total)
T772C 000:698 JLINK_ClrBPEx(BPHandle = 0x00000003)  returns 0x00 (0000ms, 0499ms total)
T772C 000:698 JLINK_ReadReg(R0)  returns 0x00000000 (0000ms, 0499ms total)
T772C 000:700 JLINK_WriteReg(R0, 0x00000800)  returns 0x00 (0000ms, 0499ms total)
T772C 000:700 JLINK_WriteReg(R1, 0x00000800)  returns 0x00 (0000ms, 0499ms total)
T772C 000:700 JLINK_WriteReg(R2, 0x000000FF)  returns 0x00 (0000ms, 0499ms total)
T772C 000:700 JLINK_WriteReg(R3, 0x00000000)  returns 0x00 (0000ms, 0499ms total)
T772C 000:700 JLINK_WriteReg(R4, 0x00000000)  returns 0x00 (0000ms, 0499ms total)
T772C 000:700 JLINK_WriteReg(R5, 0x00000000)  returns 0x00 (0000ms, 0499ms total)
T772C 000:700 JLINK_WriteReg(R6, 0x00000000)  returns 0x00 (0000ms, 0499ms total)
T772C 000:700 JLINK_WriteReg(R7, 0x00000000)  returns 0x00 (0000ms, 0499ms total)
T772C 000:700 JLINK_WriteReg(R8, 0x00000000)  returns 0x00 (0000ms, 0499ms total)
T772C 000:700 JLINK_WriteReg(R9, 0x20000500)  returns 0x00 (0000ms, 0499ms total)
T772C 000:700 JLINK_WriteReg(R10, 0x00000000)  returns 0x00 (0000ms, 0499ms total)
T772C 000:700 JLINK_WriteReg(R11, 0x00000000)  returns 0x00 (0000ms, 0499ms total)
T772C 000:700 JLINK_WriteReg(R12, 0x00000000)  returns 0x00 (0000ms, 0499ms total)
T772C 000:700 JLINK_WriteReg(R13 (SP), 0x20001000)  returns 0x00 (0000ms, 0499ms total)
T772C 000:700 JLINK_WriteReg(R14, 0x20000001)  returns 0x00 (0000ms, 0499ms total)
T772C 000:700 JLINK_WriteReg(R15 (PC), 0x20000078)  returns 0x00 (0000ms, 0499ms total)
T772C 000:700 JLINK_WriteReg(XPSR, 0x01000000)  returns 0x00 (0000ms, 0499ms total)
T772C 000:700 JLINK_WriteReg(MSP, 0x20001000)  returns 0x00 (0000ms, 0499ms total)
T772C 000:700 JLINK_WriteReg(PSP, 0x20001000)  returns 0x00 (0000ms, 0499ms total)
T772C 000:700 JLINK_WriteReg(CFBP, 0x00000000)  returns 0x00 (0000ms, 0499ms total)
T772C 000:700 JLINK_SetBPEx(Addr = 0x20000000, Type = 0xFFFFFFF2)  returns 0x00000004 (0000ms, 0499ms total)
T772C 000:700 JLINK_Go() -- CPU_ReadMem(4 bytes @ 0xE0001000) (0005ms, 0504ms total)
T772C 000:705 JLINK_IsHalted() -- CPU_ReadMem(2 bytes @ 0x20000000)  returns TRUE (0004ms, 0508ms total)
T772C 000:709 JLINK_ReadReg(R15 (PC))  returns 0x20000000 (0000ms, 0504ms total)
T772C 000:709 JLINK_ClrBPEx(BPHandle = 0x00000004)  returns 0x00 (0000ms, 0504ms total)
T772C 000:709 JLINK_ReadReg(R0)  returns 0x00000001 (0000ms, 0504ms total)
T772C 000:709 JLINK_WriteReg(R0, 0x00000800)  returns 0x00 (0000ms, 0504ms total)
T772C 000:709 JLINK_WriteReg(R1, 0x00000800)  returns 0x00 (0000ms, 0504ms total)
T772C 000:709 JLINK_WriteReg(R2, 0x000000FF)  returns 0x00 (0000ms, 0504ms total)
T772C 000:709 JLINK_WriteReg(R3, 0x00000000)  returns 0x00 (0000ms, 0504ms total)
T772C 000:709 JLINK_WriteReg(R4, 0x00000000)  returns 0x00 (0000ms, 0504ms total)
T772C 000:709 JLINK_WriteReg(R5, 0x00000000)  returns 0x00 (0000ms, 0504ms total)
T772C 000:709 JLINK_WriteReg(R6, 0x00000000)  returns 0x00 (0000ms, 0504ms total)
T772C 000:709 JLINK_WriteReg(R7, 0x00000000)  returns 0x00 (0000ms, 0504ms total)
T772C 000:709 JLINK_WriteReg(R8, 0x00000000)  returns 0x00 (0000ms, 0504ms total)
T772C 000:709 JLINK_WriteReg(R9, 0x20000500)  returns 0x00 (0000ms, 0504ms total)
T772C 000:709 JLINK_WriteReg(R10, 0x00000000)  returns 0x00 (0000ms, 0504ms total)
T772C 000:709 JLINK_WriteReg(R11, 0x00000000)  returns 0x00 (0000ms, 0504ms total)
T772C 000:709 JLINK_WriteReg(R12, 0x00000000)  returns 0x00 (0000ms, 0504ms total)
T772C 000:709 JLINK_WriteReg(R13 (SP), 0x20001000)  returns 0x00 (0000ms, 0504ms total)
T772C 000:709 JLINK_WriteReg(R14, 0x20000001)  returns 0x00 (0000ms, 0504ms total)
T772C 000:709 JLINK_WriteReg(R15 (PC), 0x200000CE)  returns 0x00 (0000ms, 0504ms total)
T772C 000:709 JLINK_WriteReg(XPSR, 0x01000000)  returns 0x00 (0000ms, 0504ms total)
T772C 000:710 JLINK_WriteReg(MSP, 0x20001000)  returns 0x00 (0000ms, 0504ms total)
T772C 000:710 JLINK_WriteReg(PSP, 0x20001000)  returns 0x00 (0000ms, 0504ms total)
T772C 000:710 JLINK_WriteReg(CFBP, 0x00000000)  returns 0x00 (0000ms, 0504ms total)
T772C 000:710 JLINK_SetBPEx(Addr = 0x20000000, Type = 0xFFFFFFF2)  returns 0x00000005 (0000ms, 0504ms total)
T772C 000:710 JLINK_Go() -- CPU_ReadMem(4 bytes @ 0xE0001000) (0003ms, 0507ms total)
T772C 000:713 JLINK_IsHalted()  returns FALSE (0001ms, 0508ms total)
T772C 000:717 JLINK_IsHalted()  returns FALSE (0001ms, 0508ms total)
T772C 000:719 JLINK_IsHalted()  returns FALSE (0001ms, 0508ms total)
T772C 000:726 JLINK_IsHalted() -- CPU_ReadMem(2 bytes @ 0x20000000)  returns TRUE (0004ms, 0511ms total)
T772C 000:730 JLINK_ReadReg(R15 (PC))  returns 0x20000000 (0000ms, 0507ms total)
T772C 000:730 JLINK_ClrBPEx(BPHandle = 0x00000005)  returns 0x00 (0000ms, 0507ms total)
T772C 000:730 JLINK_ReadReg(R0)  returns 0x00000000 (0000ms, 0507ms total)
T772C 000:732 JLINK_WriteReg(R0, 0x00001000)  returns 0x00 (0000ms, 0507ms total)
T772C 000:732 JLINK_WriteReg(R1, 0x00000800)  returns 0x00 (0000ms, 0507ms total)
T772C 000:732 JLINK_WriteReg(R2, 0x000000FF)  returns 0x00 (0000ms, 0507ms total)
T772C 000:732 JLINK_WriteReg(R3, 0x00000000)  returns 0x00 (0000ms, 0507ms total)
T772C 000:732 JLINK_WriteReg(R4, 0x00000000)  returns 0x00 (0000ms, 0507ms total)
T772C 000:732 JLINK_WriteReg(R5, 0x00000000)  returns 0x00 (0000ms, 0507ms total)
T772C 000:732 JLINK_WriteReg(R6, 0x00000000)  returns 0x00 (0000ms, 0507ms total)
T772C 000:732 JLINK_WriteReg(R7, 0x00000000)  returns 0x00 (0000ms, 0507ms total)
T772C 000:732 JLINK_WriteReg(R8, 0x00000000)  returns 0x00 (0000ms, 0507ms total)
T772C 000:732 JLINK_WriteReg(R9, 0x20000500)  returns 0x00 (0000ms, 0507ms total)
T772C 000:732 JLINK_WriteReg(R10, 0x00000000)  returns 0x00 (0000ms, 0507ms total)
T772C 000:732 JLINK_WriteReg(R11, 0x00000000)  returns 0x00 (0000ms, 0507ms total)
T772C 000:732 JLINK_WriteReg(R12, 0x00000000)  returns 0x00 (0000ms, 0507ms total)
T772C 000:732 JLINK_WriteReg(R13 (SP), 0x20001000)  returns 0x00 (0000ms, 0507ms total)
T772C 000:732 JLINK_WriteReg(R14, 0x20000001)  returns 0x00 (0000ms, 0507ms total)
T772C 000:732 JLINK_WriteReg(R15 (PC), 0x20000078)  returns 0x00 (0000ms, 0507ms total)
T772C 000:732 JLINK_WriteReg(XPSR, 0x01000000)  returns 0x00 (0000ms, 0507ms total)
T772C 000:732 JLINK_WriteReg(MSP, 0x20001000)  returns 0x00 (0000ms, 0507ms total)
T772C 000:732 JLINK_WriteReg(PSP, 0x20001000)  returns 0x00 (0000ms, 0507ms total)
T772C 000:732 JLINK_WriteReg(CFBP, 0x00000000)  returns 0x00 (0000ms, 0507ms total)
T772C 000:732 JLINK_SetBPEx(Addr = 0x20000000, Type = 0xFFFFFFF2)  returns 0x00000006 (0000ms, 0507ms total)
T772C 000:732 JLINK_Go() -- CPU_ReadMem(4 bytes @ 0xE0001000) (0005ms, 0512ms total)
T772C 000:737 JLINK_IsHalted() -- CPU_ReadMem(2 bytes @ 0x20000000)  returns TRUE (0004ms, 0516ms total)
T772C 000:741 JLINK_ReadReg(R15 (PC))  returns 0x20000000 (0000ms, 0512ms total)
T772C 000:741 JLINK_ClrBPEx(BPHandle = 0x00000006)  returns 0x00 (0000ms, 0512ms total)
T772C 000:741 JLINK_ReadReg(R0)  returns 0x00000001 (0000ms, 0512ms total)
T772C 000:741 JLINK_WriteReg(R0, 0x00001000)  returns 0x00 (0000ms, 0512ms total)
T772C 000:741 JLINK_WriteReg(R1, 0x00000800)  returns 0x00 (0000ms, 0512ms total)
T772C 000:741 JLINK_WriteReg(R2, 0x000000FF)  returns 0x00 (0000ms, 0512ms total)
T772C 000:741 JLINK_WriteReg(R3, 0x00000000)  returns 0x00 (0000ms, 0512ms total)
T772C 000:741 JLINK_WriteReg(R4, 0x00000000)  returns 0x00 (0000ms, 0512ms total)
T772C 000:741 JLINK_WriteReg(R5, 0x00000000)  returns 0x00 (0000ms, 0512ms total)
T772C 000:741 JLINK_WriteReg(R6, 0x00000000)  returns 0x00 (0000ms, 0512ms total)
T772C 000:741 JLINK_WriteReg(R7, 0x00000000)  returns 0x00 (0000ms, 0512ms total)
T772C 000:741 JLINK_WriteReg(R8, 0x00000000)  returns 0x00 (0000ms, 0512ms total)
T772C 000:741 JLINK_WriteReg(R9, 0x20000500)  returns 0x00 (0000ms, 0512ms total)
T772C 000:741 JLINK_WriteReg(R10, 0x00000000)  returns 0x00 (0000ms, 0512ms total)
T772C 000:741 JLINK_WriteReg(R11, 0x00000000)  returns 0x00 (0000ms, 0512ms total)
T772C 000:742 JLINK_WriteReg(R12, 0x00000000)  returns 0x00 (0000ms, 0512ms total)
T772C 000:742 JLINK_WriteReg(R13 (SP), 0x20001000)  returns 0x00 (0000ms, 0512ms total)
T772C 000:742 JLINK_WriteReg(R14, 0x20000001)  returns 0x00 (0000ms, 0512ms total)
T772C 000:742 JLINK_WriteReg(R15 (PC), 0x200000CE)  returns 0x00 (0000ms, 0512ms total)
T772C 000:742 JLINK_WriteReg(XPSR, 0x01000000)  returns 0x00 (0000ms, 0512ms total)
T772C 000:742 JLINK_WriteReg(MSP, 0x20001000)  returns 0x00 (0000ms, 0512ms total)
T772C 000:742 JLINK_WriteReg(PSP, 0x20001000)  returns 0x00 (0000ms, 0512ms total)
T772C 000:742 JLINK_WriteReg(CFBP, 0x00000000)  returns 0x00 (0000ms, 0512ms total)
T772C 000:742 JLINK_SetBPEx(Addr = 0x20000000, Type = 0xFFFFFFF2)  returns 0x00000007 (0000ms, 0512ms total)
T772C 000:742 JLINK_Go() -- CPU_ReadMem(4 bytes @ 0xE0001000) (0003ms, 0515ms total)
T772C 000:745 JLINK_IsHalted()  returns FALSE (0001ms, 0516ms total)
T772C 000:751 JLINK_IsHalted()  returns FALSE (0001ms, 0516ms total)
T772C 000:753 JLINK_IsHalted()  returns FALSE (0001ms, 0516ms total)
T772C 000:755 JLINK_IsHalted() -- CPU_ReadMem(2 bytes @ 0x20000000)  returns TRUE (0004ms, 0519ms total)
T772C 000:759 JLINK_ReadReg(R15 (PC))  returns 0x20000000 (0000ms, 0515ms total)
T772C 000:759 JLINK_ClrBPEx(BPHandle = 0x00000007)  returns 0x00 (0000ms, 0515ms total)
T772C 000:759 JLINK_ReadReg(R0)  returns 0x00000000 (0000ms, 0515ms total)
T772C 000:759 JLINK_WriteReg(R0, 0x00000001)  returns 0x00 (0000ms, 0515ms total)
T772C 000:759 JLINK_WriteReg(R1, 0x00000800)  returns 0x00 (0000ms, 0515ms total)
T772C 000:759 JLINK_WriteReg(R2, 0x000000FF)  returns 0x00 (0000ms, 0515ms total)
T772C 000:759 JLINK_WriteReg(R3, 0x00000000)  returns 0x00 (0000ms, 0515ms total)
T772C 000:759 JLINK_WriteReg(R4, 0x00000000)  returns 0x00 (0000ms, 0515ms total)
T772C 000:759 JLINK_WriteReg(R5, 0x00000000)  returns 0x00 (0000ms, 0515ms total)
T772C 000:759 JLINK_WriteReg(R6, 0x00000000)  returns 0x00 (0000ms, 0515ms total)
T772C 000:759 JLINK_WriteReg(R7, 0x00000000)  returns 0x00 (0000ms, 0515ms total)
T772C 000:759 JLINK_WriteReg(R8, 0x00000000)  returns 0x00 (0000ms, 0515ms total)
T772C 000:759 JLINK_WriteReg(R9, 0x20000500)  returns 0x00 (0000ms, 0515ms total)
T772C 000:759 JLINK_WriteReg(R10, 0x00000000)  returns 0x00 (0000ms, 0515ms total)
T772C 000:759 JLINK_WriteReg(R11, 0x00000000)  returns 0x00 (0000ms, 0515ms total)
T772C 000:759 JLINK_WriteReg(R12, 0x00000000)  returns 0x00 (0000ms, 0515ms total)
T772C 000:759 JLINK_WriteReg(R13 (SP), 0x20001000)  returns 0x00 (0000ms, 0515ms total)
T772C 000:759 JLINK_WriteReg(R14, 0x20000001)  returns 0x00 (0000ms, 0515ms total)
T772C 000:759 JLINK_WriteReg(R15 (PC), 0x20000074)  returns 0x00 (0000ms, 0515ms total)
T772C 000:759 JLINK_WriteReg(XPSR, 0x01000000)  returns 0x00 (0000ms, 0515ms total)
T772C 000:759 JLINK_WriteReg(MSP, 0x20001000)  returns 0x00 (0000ms, 0515ms total)
T772C 000:759 JLINK_WriteReg(PSP, 0x20001000)  returns 0x00 (0000ms, 0515ms total)
T772C 000:759 JLINK_WriteReg(CFBP, 0x00000000)  returns 0x00 (0000ms, 0515ms total)
T772C 000:759 JLINK_SetBPEx(Addr = 0x20000000, Type = 0xFFFFFFF2)  returns 0x00000008 (0000ms, 0515ms total)
T772C 000:759 JLINK_Go() -- CPU_ReadMem(4 bytes @ 0xE0001000) (0005ms, 0520ms total)
T772C 000:764 JLINK_IsHalted() -- CPU_ReadMem(2 bytes @ 0x20000000)  returns TRUE (0004ms, 0524ms total)
T772C 000:768 JLINK_ReadReg(R15 (PC))  returns 0x20000000 (0000ms, 0520ms total)
T772C 000:768 JLINK_ClrBPEx(BPHandle = 0x00000008)  returns 0x00 (0000ms, 0520ms total)
T772C 000:768 JLINK_ReadReg(R0)  returns 0x00000000 (0000ms, 0520ms total)
T772C 000:823 JLINK_WriteMem(0x20000000, 0x0508 Bytes, ...) - Data: 00 BE 0A E0 0D 78 2D 06 68 40 08 24 40 00 00 D3 ... -- CPU_WriteMem(1288 bytes @ 0x20000000)  returns 0x508 (0016ms, 0536ms total)
T772C 000:839 JLINK_WriteReg(R0, 0x00000000)  returns 0x00 (0000ms, 0536ms total)
T772C 000:839 JLINK_WriteReg(R1, 0x00B71B00)  returns 0x00 (0000ms, 0536ms total)
T772C 000:839 JLINK_WriteReg(R2, 0x00000002)  returns 0x00 (0000ms, 0536ms total)
T772C 000:839 JLINK_WriteReg(R3, 0x00000000)  returns 0x00 (0000ms, 0536ms total)
T772C 000:839 JLINK_WriteReg(R4, 0x00000000)  returns 0x00 (0000ms, 0536ms total)
T772C 000:839 JLINK_WriteReg(R5, 0x00000000)  returns 0x00 (0000ms, 0536ms total)
T772C 000:839 JLINK_WriteReg(R6, 0x00000000)  returns 0x00 (0000ms, 0536ms total)
T772C 000:839 JLINK_WriteReg(R7, 0x00000000)  returns 0x00 (0000ms, 0536ms total)
T772C 000:839 JLINK_WriteReg(R8, 0x00000000)  returns 0x00 (0000ms, 0536ms total)
T772C 000:839 JLINK_WriteReg(R9, 0x20000500)  returns 0x00 (0000ms, 0536ms total)
T772C 000:839 JLINK_WriteReg(R10, 0x00000000)  returns 0x00 (0000ms, 0536ms total)
T772C 000:839 JLINK_WriteReg(R11, 0x00000000)  returns 0x00 (0000ms, 0536ms total)
T772C 000:839 JLINK_WriteReg(R12, 0x00000000)  returns 0x00 (0000ms, 0536ms total)
T772C 000:839 JLINK_WriteReg(R13 (SP), 0x20001000)  returns 0x00 (0000ms, 0536ms total)
T772C 000:839 JLINK_WriteReg(R14, 0x20000001)  returns 0x00 (0000ms, 0536ms total)
T772C 000:839 JLINK_WriteReg(R15 (PC), 0x20000020)  returns 0x00 (0000ms, 0536ms total)
T772C 000:839 JLINK_WriteReg(XPSR, 0x01000000)  returns 0x00 (0000ms, 0536ms total)
T772C 000:839 JLINK_WriteReg(MSP, 0x20001000)  returns 0x00 (0000ms, 0536ms total)
T772C 000:839 JLINK_WriteReg(PSP, 0x20001000)  returns 0x00 (0000ms, 0536ms total)
T772C 000:839 JLINK_WriteReg(CFBP, 0x00000000)  returns 0x00 (0000ms, 0536ms total)
T772C 000:839 JLINK_SetBPEx(Addr = 0x20000000, Type = 0xFFFFFFF2) -- CPU_ReadMem(2 bytes @ 0x20000000)  returns 0x00000009 (0002ms, 0538ms total)
T772C 000:841 JLINK_Go() -- CPU_WriteMem(2 bytes @ 0x20000000) -- CPU_ReadMem(4 bytes @ 0xE0001000) (0004ms, 0542ms total)
T772C 000:845 JLINK_IsHalted() -- CPU_ReadMem(2 bytes @ 0x20000000)  returns TRUE (0004ms, 0546ms total)
T772C 000:849 JLINK_ReadReg(R15 (PC))  returns 0x20000000 (0000ms, 0542ms total)
T772C 000:849 JLINK_ClrBPEx(BPHandle = 0x00000009)  returns 0x00 (0000ms, 0542ms total)
T772C 000:849 JLINK_ReadReg(R0)  returns 0x00000000 (0000ms, 0542ms total)
T772C 000:850 JLINK_WriteMem(0x20000530, 0x0200 Bytes, ...) - Data: 30 C4 FF 1F 81 06 00 00 8D 0C 00 00 8F 06 00 00 ... -- CPU_WriteMem(512 bytes @ 0x20000530)  returns 0x200 (0006ms, 0548ms total)
T772C 000:856 JLINK_WriteReg(R0, 0x00000000)  returns 0x00 (0000ms, 0548ms total)
T772C 000:856 JLINK_WriteReg(R1, 0x00000200)  returns 0x00 (0000ms, 0548ms total)
T772C 000:856 JLINK_WriteReg(R2, 0x20000530)  returns 0x00 (0000ms, 0548ms total)
T772C 000:856 JLINK_WriteReg(R3, 0x00000000)  returns 0x00 (0000ms, 0548ms total)
T772C 000:856 JLINK_WriteReg(R4, 0x00000000)  returns 0x00 (0000ms, 0548ms total)
T772C 000:856 JLINK_WriteReg(R5, 0x00000000)  returns 0x00 (0000ms, 0548ms total)
T772C 000:856 JLINK_WriteReg(R6, 0x00000000)  returns 0x00 (0000ms, 0548ms total)
T772C 000:856 JLINK_WriteReg(R7, 0x00000000)  returns 0x00 (0000ms, 0548ms total)
T772C 000:856 JLINK_WriteReg(R8, 0x00000000)  returns 0x00 (0000ms, 0548ms total)
T772C 000:857 JLINK_WriteReg(R9, 0x20000500)  returns 0x00 (0000ms, 0549ms total)
T772C 000:857 JLINK_WriteReg(R10, 0x00000000)  returns 0x00 (0000ms, 0549ms total)
T772C 000:857 JLINK_WriteReg(R11, 0x00000000)  returns 0x00 (0000ms, 0549ms total)
T772C 000:857 JLINK_WriteReg(R12, 0x00000000)  returns 0x00 (0000ms, 0549ms total)
T772C 000:857 JLINK_WriteReg(R13 (SP), 0x20001000)  returns 0x00 (0000ms, 0549ms total)
T772C 000:857 JLINK_WriteReg(R14, 0x20000001)  returns 0x00 (0000ms, 0549ms total)
T772C 000:857 JLINK_WriteReg(R15 (PC), 0x200000E2)  returns 0x00 (0000ms, 0549ms total)
T772C 000:857 JLINK_WriteReg(XPSR, 0x01000000)  returns 0x00 (0000ms, 0549ms total)
T772C 000:857 JLINK_WriteReg(MSP, 0x20001000)  returns 0x00 (0000ms, 0549ms total)
T772C 000:857 JLINK_WriteReg(PSP, 0x20001000)  returns 0x00 (0000ms, 0549ms total)
T772C 000:857 JLINK_WriteReg(CFBP, 0x00000000)  returns 0x00 (0000ms, 0549ms total)
T772C 000:857 JLINK_SetBPEx(Addr = 0x20000000, Type = 0xFFFFFFF2)  returns 0x0000000A (0000ms, 0549ms total)
T772C 000:857 JLINK_Go() -- CPU_ReadMem(4 bytes @ 0xE0001000) (0003ms, 0552ms total)
T772C 000:860 JLINK_IsHalted()  returns FALSE (0001ms, 0553ms total)
T772C 000:869 JLINK_IsHalted()  returns FALSE (0001ms, 0553ms total)
T772C 000:877 JLINK_IsHalted() -- CPU_ReadMem(2 bytes @ 0x20000000)  returns TRUE (0005ms, 0557ms total)
T772C 000:882 JLINK_ReadReg(R15 (PC))  returns 0x20000000 (0000ms, 0552ms total)
T772C 000:882 JLINK_ClrBPEx(BPHandle = 0x0000000A)  returns 0x00 (0000ms, 0552ms total)
T772C 000:882 JLINK_ReadReg(R0)  returns 0x00000000 (0000ms, 0552ms total)
T772C 000:882 JLINK_WriteMem(0x20000530, 0x0200 Bytes, ...) - Data: 9F 06 00 00 9F 06 00 00 9F 06 00 00 9F 06 00 00 ... -- CPU_WriteMem(512 bytes @ 0x20000530)  returns 0x200 (0007ms, 0559ms total)
T772C 000:889 JLINK_WriteReg(R0, 0x00000200)  returns 0x00 (0000ms, 0559ms total)
T772C 000:889 JLINK_WriteReg(R1, 0x00000200)  returns 0x00 (0000ms, 0559ms total)
T772C 000:889 JLINK_WriteReg(R2, 0x20000530)  returns 0x00 (0000ms, 0559ms total)
T772C 000:889 JLINK_WriteReg(R3, 0x00000000)  returns 0x00 (0000ms, 0559ms total)
T772C 000:889 JLINK_WriteReg(R4, 0x00000000)  returns 0x00 (0000ms, 0559ms total)
T772C 000:889 JLINK_WriteReg(R5, 0x00000000)  returns 0x00 (0000ms, 0559ms total)
T772C 000:889 JLINK_WriteReg(R6, 0x00000000)  returns 0x00 (0000ms, 0559ms total)
T772C 000:889 JLINK_WriteReg(R7, 0x00000000)  returns 0x00 (0000ms, 0559ms total)
T772C 000:889 JLINK_WriteReg(R8, 0x00000000)  returns 0x00 (0000ms, 0559ms total)
T772C 000:889 JLINK_WriteReg(R9, 0x20000500)  returns 0x00 (0000ms, 0559ms total)
T772C 000:889 JLINK_WriteReg(R10, 0x00000000)  returns 0x00 (0000ms, 0559ms total)
T772C 000:889 JLINK_WriteReg(R11, 0x00000000)  returns 0x00 (0000ms, 0559ms total)
T772C 000:889 JLINK_WriteReg(R12, 0x00000000)  returns 0x00 (0000ms, 0559ms total)
T772C 000:889 JLINK_WriteReg(R13 (SP), 0x20001000)  returns 0x00 (0000ms, 0559ms total)
T772C 000:889 JLINK_WriteReg(R14, 0x20000001)  returns 0x00 (0000ms, 0559ms total)
T772C 000:889 JLINK_WriteReg(R15 (PC), 0x200000E2)  returns 0x00 (0000ms, 0559ms total)
T772C 000:889 JLINK_WriteReg(XPSR, 0x01000000)  returns 0x00 (0000ms, 0559ms total)
T772C 000:889 JLINK_WriteReg(MSP, 0x20001000)  returns 0x00 (0000ms, 0559ms total)
T772C 000:889 JLINK_WriteReg(PSP, 0x20001000)  returns 0x00 (0000ms, 0559ms total)
T772C 000:889 JLINK_WriteReg(CFBP, 0x00000000)  returns 0x00 (0000ms, 0559ms total)
T772C 000:889 JLINK_SetBPEx(Addr = 0x20000000, Type = 0xFFFFFFF2)  returns 0x0000000B (0000ms, 0559ms total)
T772C 000:889 JLINK_Go() -- CPU_ReadMem(4 bytes @ 0xE0001000) (0004ms, 0563ms total)
T772C 000:893 JLINK_IsHalted()  returns FALSE (0001ms, 0564ms total)
T772C 000:897 JLINK_IsHalted()  returns FALSE (0001ms, 0564ms total)
T772C 000:899 JLINK_IsHalted()  returns FALSE (0001ms, 0564ms total)
T772C 000:901 JLINK_IsHalted()  returns FALSE (0001ms, 0564ms total)
T772C 000:903 JLINK_IsHalted()  returns FALSE (0001ms, 0564ms total)
T772C 000:909 JLINK_IsHalted() -- CPU_ReadMem(2 bytes @ 0x20000000)  returns TRUE (0005ms, 0568ms total)
T772C 000:914 JLINK_ReadReg(R15 (PC))  returns 0x20000000 (0000ms, 0563ms total)
T772C 000:914 JLINK_ClrBPEx(BPHandle = 0x0000000B)  returns 0x00 (0000ms, 0563ms total)
T772C 000:914 JLINK_ReadReg(R0)  returns 0x00000000 (0000ms, 0563ms total)
T772C 000:914 JLINK_WriteMem(0x20000530, 0x0200 Bytes, ...) - Data: FF FF FF FF FF FF FF FF FF FF FF FF FE FF FF FF ... -- CPU_WriteMem(512 bytes @ 0x20000530)  returns 0x200 (0007ms, 0570ms total)
T772C 000:921 JLINK_WriteReg(R0, 0x00000400)  returns 0x00 (0000ms, 0570ms total)
T772C 000:921 JLINK_WriteReg(R1, 0x00000200)  returns 0x00 (0000ms, 0570ms total)
T772C 000:921 JLINK_WriteReg(R2, 0x20000530)  returns 0x00 (0000ms, 0570ms total)
T772C 000:921 JLINK_WriteReg(R3, 0x00000000)  returns 0x00 (0000ms, 0570ms total)
T772C 000:921 JLINK_WriteReg(R4, 0x00000000)  returns 0x00 (0000ms, 0570ms total)
T772C 000:921 JLINK_WriteReg(R5, 0x00000000)  returns 0x00 (0000ms, 0570ms total)
T772C 000:921 JLINK_WriteReg(R6, 0x00000000)  returns 0x00 (0000ms, 0570ms total)
T772C 000:921 JLINK_WriteReg(R7, 0x00000000)  returns 0x00 (0000ms, 0570ms total)
T772C 000:921 JLINK_WriteReg(R8, 0x00000000)  returns 0x00 (0000ms, 0570ms total)
T772C 000:921 JLINK_WriteReg(R9, 0x20000500)  returns 0x00 (0000ms, 0570ms total)
T772C 000:921 JLINK_WriteReg(R10, 0x00000000)  returns 0x00 (0000ms, 0570ms total)
T772C 000:921 JLINK_WriteReg(R11, 0x00000000)  returns 0x00 (0000ms, 0570ms total)
T772C 000:921 JLINK_WriteReg(R12, 0x00000000)  returns 0x00 (0000ms, 0570ms total)
T772C 000:921 JLINK_WriteReg(R13 (SP), 0x20001000)  returns 0x00 (0000ms, 0570ms total)
T772C 000:921 JLINK_WriteReg(R14, 0x20000001)  returns 0x00 (0000ms, 0570ms total)
T772C 000:921 JLINK_WriteReg(R15 (PC), 0x200000E2)  returns 0x00 (0000ms, 0570ms total)
T772C 000:921 JLINK_WriteReg(XPSR, 0x01000000)  returns 0x00 (0000ms, 0570ms total)
T772C 000:921 JLINK_WriteReg(MSP, 0x20001000)  returns 0x00 (0000ms, 0570ms total)
T772C 000:921 JLINK_WriteReg(PSP, 0x20001000)  returns 0x00 (0000ms, 0570ms total)
T772C 000:921 JLINK_WriteReg(CFBP, 0x00000000)  returns 0x00 (0000ms, 0570ms total)
T772C 000:921 JLINK_SetBPEx(Addr = 0x20000000, Type = 0xFFFFFFF2)  returns 0x0000000C (0000ms, 0570ms total)
T772C 000:921 JLINK_Go() -- CPU_ReadMem(4 bytes @ 0xE0001000) (0004ms, 0574ms total)
T772C 000:925 JLINK_IsHalted()  returns FALSE (0001ms, 0575ms total)
T772C 000:931 JLINK_IsHalted()  returns FALSE (0001ms, 0575ms total)
T772C 000:938 JLINK_IsHalted() -- CPU_ReadMem(2 bytes @ 0x20000000)  returns TRUE (0005ms, 0579ms total)
T772C 000:943 JLINK_ReadReg(R15 (PC))  returns 0x20000000 (0000ms, 0574ms total)
T772C 000:943 JLINK_ClrBPEx(BPHandle = 0x0000000C)  returns 0x00 (0000ms, 0574ms total)
T772C 000:943 JLINK_ReadReg(R0)  returns 0x00000000 (0000ms, 0574ms total)
T772C 000:943 JLINK_WriteMem(0x20000530, 0x0200 Bytes, ...) - Data: 9A 40 91 B2 1C 4A B2 FB F1 F0 19 E0 16 4A 12 78 ... -- CPU_WriteMem(512 bytes @ 0x20000530)  returns 0x200 (0007ms, 0581ms total)
T772C 000:950 JLINK_WriteReg(R0, 0x00000600)  returns 0x00 (0000ms, 0581ms total)
T772C 000:950 JLINK_WriteReg(R1, 0x00000200)  returns 0x00 (0000ms, 0581ms total)
T772C 000:950 JLINK_WriteReg(R2, 0x20000530)  returns 0x00 (0000ms, 0581ms total)
T772C 000:950 JLINK_WriteReg(R3, 0x00000000)  returns 0x00 (0000ms, 0581ms total)
T772C 000:950 JLINK_WriteReg(R4, 0x00000000)  returns 0x00 (0000ms, 0581ms total)
T772C 000:950 JLINK_WriteReg(R5, 0x00000000)  returns 0x00 (0000ms, 0581ms total)
T772C 000:950 JLINK_WriteReg(R6, 0x00000000)  returns 0x00 (0000ms, 0581ms total)
T772C 000:950 JLINK_WriteReg(R7, 0x00000000)  returns 0x00 (0000ms, 0581ms total)
T772C 000:950 JLINK_WriteReg(R8, 0x00000000)  returns 0x00 (0000ms, 0581ms total)
T772C 000:950 JLINK_WriteReg(R9, 0x20000500)  returns 0x00 (0000ms, 0581ms total)
T772C 000:950 JLINK_WriteReg(R10, 0x00000000)  returns 0x00 (0000ms, 0581ms total)
T772C 000:950 JLINK_WriteReg(R11, 0x00000000)  returns 0x00 (0000ms, 0581ms total)
T772C 000:950 JLINK_WriteReg(R12, 0x00000000)  returns 0x00 (0000ms, 0581ms total)
T772C 000:950 JLINK_WriteReg(R13 (SP), 0x20001000)  returns 0x00 (0000ms, 0581ms total)
T772C 000:950 JLINK_WriteReg(R14, 0x20000001)  returns 0x00 (0000ms, 0581ms total)
T772C 000:950 JLINK_WriteReg(R15 (PC), 0x200000E2)  returns 0x00 (0000ms, 0581ms total)
T772C 000:950 JLINK_WriteReg(XPSR, 0x01000000)  returns 0x00 (0000ms, 0581ms total)
T772C 000:950 JLINK_WriteReg(MSP, 0x20001000)  returns 0x00 (0000ms, 0581ms total)
T772C 000:950 JLINK_WriteReg(PSP, 0x20001000)  returns 0x00 (0000ms, 0581ms total)
T772C 000:950 JLINK_WriteReg(CFBP, 0x00000000)  returns 0x00 (0000ms, 0581ms total)
T772C 000:950 JLINK_SetBPEx(Addr = 0x20000000, Type = 0xFFFFFFF2)  returns 0x0000000D (0000ms, 0581ms total)
T772C 000:950 JLINK_Go() -- CPU_ReadMem(4 bytes @ 0xE0001000) (0004ms, 0585ms total)
T772C 000:954 JLINK_IsHalted()  returns FALSE (0001ms, 0586ms total)
T772C 000:959 JLINK_IsHalted()  returns FALSE (0001ms, 0586ms total)
T772C 000:961 JLINK_IsHalted()  returns FALSE (0001ms, 0586ms total)
T772C 000:963 JLINK_IsHalted()  returns FALSE (0001ms, 0586ms total)
T772C 000:969 JLINK_IsHalted() -- CPU_ReadMem(2 bytes @ 0x20000000)  returns TRUE (0005ms, 0590ms total)
T772C 000:974 JLINK_ReadReg(R15 (PC))  returns 0x20000000 (0000ms, 0585ms total)
T772C 000:974 JLINK_ClrBPEx(BPHandle = 0x0000000D)  returns 0x00 (0000ms, 0585ms total)
T772C 000:974 JLINK_ReadReg(R0)  returns 0x00000000 (0000ms, 0585ms total)
T772C 000:974 JLINK_WriteMem(0x20000530, 0x0200 Bytes, ...) - Data: 43 F0 20 03 C9 4C 54 F8 20 40 44 F8 21 30 0B E0 ... -- CPU_WriteMem(512 bytes @ 0x20000530)  returns 0x200 (0007ms, 0592ms total)
T772C 000:981 JLINK_WriteReg(R0, 0x00000800)  returns 0x00 (0000ms, 0592ms total)
T772C 000:981 JLINK_WriteReg(R1, 0x00000200)  returns 0x00 (0000ms, 0592ms total)
T772C 000:981 JLINK_WriteReg(R2, 0x20000530)  returns 0x00 (0000ms, 0592ms total)
T772C 000:981 JLINK_WriteReg(R3, 0x00000000)  returns 0x00 (0000ms, 0592ms total)
T772C 000:981 JLINK_WriteReg(R4, 0x00000000)  returns 0x00 (0000ms, 0592ms total)
T772C 000:981 JLINK_WriteReg(R5, 0x00000000)  returns 0x00 (0000ms, 0592ms total)
T772C 000:981 JLINK_WriteReg(R6, 0x00000000)  returns 0x00 (0000ms, 0592ms total)
T772C 000:981 JLINK_WriteReg(R7, 0x00000000)  returns 0x00 (0000ms, 0592ms total)
T772C 000:981 JLINK_WriteReg(R8, 0x00000000)  returns 0x00 (0000ms, 0592ms total)
T772C 000:981 JLINK_WriteReg(R9, 0x20000500)  returns 0x00 (0000ms, 0592ms total)
T772C 000:981 JLINK_WriteReg(R10, 0x00000000)  returns 0x00 (0000ms, 0592ms total)
T772C 000:981 JLINK_WriteReg(R11, 0x00000000)  returns 0x00 (0000ms, 0592ms total)
T772C 000:981 JLINK_WriteReg(R12, 0x00000000)  returns 0x00 (0000ms, 0592ms total)
T772C 000:981 JLINK_WriteReg(R13 (SP), 0x20001000)  returns 0x00 (0000ms, 0592ms total)
T772C 000:981 JLINK_WriteReg(R14, 0x20000001)  returns 0x00 (0000ms, 0592ms total)
T772C 000:981 JLINK_WriteReg(R15 (PC), 0x200000E2)  returns 0x00 (0000ms, 0592ms total)
T772C 000:981 JLINK_WriteReg(XPSR, 0x01000000)  returns 0x00 (0000ms, 0592ms total)
T772C 000:981 JLINK_WriteReg(MSP, 0x20001000)  returns 0x00 (0000ms, 0592ms total)
T772C 000:981 JLINK_WriteReg(PSP, 0x20001000)  returns 0x00 (0000ms, 0592ms total)
T772C 000:981 JLINK_WriteReg(CFBP, 0x00000000)  returns 0x00 (0000ms, 0592ms total)
T772C 000:981 JLINK_SetBPEx(Addr = 0x20000000, Type = 0xFFFFFFF2)  returns 0x0000000E (0000ms, 0592ms total)
T772C 000:981 JLINK_Go() -- CPU_ReadMem(4 bytes @ 0xE0001000) (0004ms, 0596ms total)
T772C 000:985 JLINK_IsHalted()  returns FALSE (0001ms, 0597ms total)
T772C 000:989 JLINK_IsHalted()  returns FALSE (0001ms, 0597ms total)
T772C 000:991 JLINK_IsHalted()  returns FALSE (0001ms, 0597ms total)
T772C 000:993 JLINK_IsHalted()  returns FALSE (0001ms, 0597ms total)
T772C 000:995 JLINK_IsHalted()  returns FALSE (0001ms, 0597ms total)
T772C 001:002 JLINK_IsHalted() -- CPU_ReadMem(2 bytes @ 0x20000000)  returns TRUE (0005ms, 0601ms total)
T772C 001:007 JLINK_ReadReg(R15 (PC))  returns 0x20000000 (0000ms, 0596ms total)
T772C 001:007 JLINK_ClrBPEx(BPHandle = 0x0000000E)  returns 0x00 (0000ms, 0596ms total)
T772C 001:007 JLINK_ReadReg(R0)  returns 0x00000000 (0000ms, 0596ms total)
T772C 001:007 JLINK_WriteMem(0x20000530, 0x0200 Bytes, ...) - Data: 41 43 4F F0 E0 22 51 61 00 21 4F F0 E0 22 91 61 ... -- CPU_WriteMem(512 bytes @ 0x20000530)  returns 0x200 (0007ms, 0603ms total)
T772C 001:014 JLINK_WriteReg(R0, 0x00000A00)  returns 0x00 (0000ms, 0603ms total)
T772C 001:014 JLINK_WriteReg(R1, 0x00000200)  returns 0x00 (0000ms, 0603ms total)
T772C 001:014 JLINK_WriteReg(R2, 0x20000530)  returns 0x00 (0000ms, 0603ms total)
T772C 001:014 JLINK_WriteReg(R3, 0x00000000)  returns 0x00 (0000ms, 0603ms total)
T772C 001:014 JLINK_WriteReg(R4, 0x00000000)  returns 0x00 (0000ms, 0603ms total)
T772C 001:014 JLINK_WriteReg(R5, 0x00000000)  returns 0x00 (0000ms, 0603ms total)
T772C 001:014 JLINK_WriteReg(R6, 0x00000000)  returns 0x00 (0000ms, 0603ms total)
T772C 001:014 JLINK_WriteReg(R7, 0x00000000)  returns 0x00 (0000ms, 0603ms total)
T772C 001:014 JLINK_WriteReg(R8, 0x00000000)  returns 0x00 (0000ms, 0603ms total)
T772C 001:014 JLINK_WriteReg(R9, 0x20000500)  returns 0x00 (0000ms, 0603ms total)
T772C 001:014 JLINK_WriteReg(R10, 0x00000000)  returns 0x00 (0000ms, 0603ms total)
T772C 001:014 JLINK_WriteReg(R11, 0x00000000)  returns 0x00 (0000ms, 0603ms total)
T772C 001:014 JLINK_WriteReg(R12, 0x00000000)  returns 0x00 (0000ms, 0603ms total)
T772C 001:014 JLINK_WriteReg(R13 (SP), 0x20001000)  returns 0x00 (0000ms, 0603ms total)
T772C 001:014 JLINK_WriteReg(R14, 0x20000001)  returns 0x00 (0000ms, 0603ms total)
T772C 001:014 JLINK_WriteReg(R15 (PC), 0x200000E2)  returns 0x00 (0000ms, 0603ms total)
T772C 001:014 JLINK_WriteReg(XPSR, 0x01000000)  returns 0x00 (0000ms, 0603ms total)
T772C 001:014 JLINK_WriteReg(MSP, 0x20001000)  returns 0x00 (0000ms, 0603ms total)
T772C 001:014 JLINK_WriteReg(PSP, 0x20001000)  returns 0x00 (0000ms, 0603ms total)
T772C 001:014 JLINK_WriteReg(CFBP, 0x00000000)  returns 0x00 (0000ms, 0603ms total)
T772C 001:014 JLINK_SetBPEx(Addr = 0x20000000, Type = 0xFFFFFFF2)  returns 0x0000000F (0000ms, 0603ms total)
T772C 001:014 JLINK_Go() -- CPU_ReadMem(4 bytes @ 0xE0001000) (0004ms, 0607ms total)
T772C 001:018 JLINK_IsHalted()  returns FALSE (0001ms, 0608ms total)
T772C 001:022 JLINK_IsHalted()  returns FALSE (0001ms, 0608ms total)
T772C 001:024 JLINK_IsHalted()  returns FALSE (0001ms, 0608ms total)
T772C 001:033 JLINK_IsHalted() -- CPU_ReadMem(2 bytes @ 0x20000000)  returns TRUE (0005ms, 0612ms total)
T772C 001:038 JLINK_ReadReg(R15 (PC))  returns 0x20000000 (0000ms, 0607ms total)
T772C 001:038 JLINK_ClrBPEx(BPHandle = 0x0000000F)  returns 0x00 (0000ms, 0607ms total)
T772C 001:038 JLINK_ReadReg(R0)  returns 0x00000000 (0000ms, 0607ms total)
T772C 001:038 JLINK_WriteMem(0x20000530, 0x0200 Bytes, ...) - Data: F5 D3 14 46 00 21 02 E0 24 F8 02 1B 49 1C B1 EB ... -- CPU_WriteMem(512 bytes @ 0x20000530)  returns 0x200 (0007ms, 0614ms total)
T772C 001:045 JLINK_WriteReg(R0, 0x00000C00)  returns 0x00 (0000ms, 0614ms total)
T772C 001:045 JLINK_WriteReg(R1, 0x00000200)  returns 0x00 (0000ms, 0614ms total)
T772C 001:045 JLINK_WriteReg(R2, 0x20000530)  returns 0x00 (0000ms, 0614ms total)
T772C 001:045 JLINK_WriteReg(R3, 0x00000000)  returns 0x00 (0000ms, 0614ms total)
T772C 001:045 JLINK_WriteReg(R4, 0x00000000)  returns 0x00 (0000ms, 0614ms total)
T772C 001:045 JLINK_WriteReg(R5, 0x00000000)  returns 0x00 (0000ms, 0614ms total)
T772C 001:045 JLINK_WriteReg(R6, 0x00000000)  returns 0x00 (0000ms, 0614ms total)
T772C 001:045 JLINK_WriteReg(R7, 0x00000000)  returns 0x00 (0000ms, 0614ms total)
T772C 001:045 JLINK_WriteReg(R8, 0x00000000)  returns 0x00 (0000ms, 0614ms total)
T772C 001:045 JLINK_WriteReg(R9, 0x20000500)  returns 0x00 (0000ms, 0614ms total)
T772C 001:045 JLINK_WriteReg(R10, 0x00000000)  returns 0x00 (0000ms, 0614ms total)
T772C 001:045 JLINK_WriteReg(R11, 0x00000000)  returns 0x00 (0000ms, 0614ms total)
T772C 001:045 JLINK_WriteReg(R12, 0x00000000)  returns 0x00 (0000ms, 0614ms total)
T772C 001:045 JLINK_WriteReg(R13 (SP), 0x20001000)  returns 0x00 (0000ms, 0614ms total)
T772C 001:045 JLINK_WriteReg(R14, 0x20000001)  returns 0x00 (0000ms, 0614ms total)
T772C 001:045 JLINK_WriteReg(R15 (PC), 0x200000E2)  returns 0x00 (0000ms, 0614ms total)
T772C 001:045 JLINK_WriteReg(XPSR, 0x01000000)  returns 0x00 (0000ms, 0614ms total)
T772C 001:045 JLINK_WriteReg(MSP, 0x20001000)  returns 0x00 (0000ms, 0614ms total)
T772C 001:045 JLINK_WriteReg(PSP, 0x20001000)  returns 0x00 (0000ms, 0614ms total)
T772C 001:045 JLINK_WriteReg(CFBP, 0x00000000)  returns 0x00 (0000ms, 0614ms total)
T772C 001:045 JLINK_SetBPEx(Addr = 0x20000000, Type = 0xFFFFFFF2)  returns 0x00000010 (0000ms, 0614ms total)
T772C 001:045 JLINK_Go() -- CPU_ReadMem(4 bytes @ 0xE0001000) (0004ms, 0618ms total)
T772C 001:049 JLINK_IsHalted()  returns FALSE (0001ms, 0619ms total)
T772C 001:053 JLINK_IsHalted()  returns FALSE (0001ms, 0619ms total)
T772C 001:055 JLINK_IsHalted()  returns FALSE (0001ms, 0619ms total)
T772C 001:057 JLINK_IsHalted()  returns FALSE (0001ms, 0619ms total)
T772C 001:068 JLINK_IsHalted() -- CPU_ReadMem(2 bytes @ 0x20000000)  returns TRUE (0005ms, 0623ms total)
T772C 001:073 JLINK_ReadReg(R15 (PC))  returns 0x20000000 (0000ms, 0618ms total)
T772C 001:073 JLINK_ClrBPEx(BPHandle = 0x00000010)  returns 0x00 (0000ms, 0618ms total)
T772C 001:073 JLINK_ReadReg(R0)  returns 0x00000000 (0000ms, 0618ms total)
T772C 001:075 JLINK_WriteMem(0x20000530, 0x0200 Bytes, ...) - Data: 21 00 0B B9 00 20 70 BD 4A 4D 28 57 00 F0 1F 06 ... -- CPU_WriteMem(512 bytes @ 0x20000530)  returns 0x200 (0007ms, 0625ms total)
T772C 001:082 JLINK_WriteReg(R0, 0x00000E00)  returns 0x00 (0000ms, 0625ms total)
T772C 001:082 JLINK_WriteReg(R1, 0x00000200)  returns 0x00 (0000ms, 0625ms total)
T772C 001:082 JLINK_WriteReg(R2, 0x20000530)  returns 0x00 (0000ms, 0625ms total)
T772C 001:082 JLINK_WriteReg(R3, 0x00000000)  returns 0x00 (0000ms, 0625ms total)
T772C 001:082 JLINK_WriteReg(R4, 0x00000000)  returns 0x00 (0000ms, 0625ms total)
T772C 001:082 JLINK_WriteReg(R5, 0x00000000)  returns 0x00 (0000ms, 0625ms total)
T772C 001:082 JLINK_WriteReg(R6, 0x00000000)  returns 0x00 (0000ms, 0625ms total)
T772C 001:082 JLINK_WriteReg(R7, 0x00000000)  returns 0x00 (0000ms, 0625ms total)
T772C 001:082 JLINK_WriteReg(R8, 0x00000000)  returns 0x00 (0000ms, 0625ms total)
T772C 001:082 JLINK_WriteReg(R9, 0x20000500)  returns 0x00 (0000ms, 0625ms total)
T772C 001:082 JLINK_WriteReg(R10, 0x00000000)  returns 0x00 (0000ms, 0625ms total)
T772C 001:082 JLINK_WriteReg(R11, 0x00000000)  returns 0x00 (0000ms, 0625ms total)
T772C 001:082 JLINK_WriteReg(R12, 0x00000000)  returns 0x00 (0000ms, 0625ms total)
T772C 001:082 JLINK_WriteReg(R13 (SP), 0x20001000)  returns 0x00 (0000ms, 0625ms total)
